RTDS Technologies,0,2013
94,66A,28D
1,S1) VA-AT,1,,kV,0.00776951,-254.581,0.0,0,65535,1.0,1.0,P
2,S1) VB-AT,2,,kV,0.0134348,-634.992,0.0,0,65535,1.0,1.0,P
3,S1) VC-AT,3,,kV,0.0111285,-248.345,0.0,0,65535,1.0,1.0,P
4,IA-AT,1,,KA,4.07666E-6,-0.133582,0.0,0,65535,1.0,1.0,P
5,IB-AT,2,,KA,5.14972E-4,-7.74943,0.0,0,65535,1.0,1.0,P
6,IC-AT,3,,KA,5.10923E-4,-25.866,0.0,0,65535,1.0,1.0,P
7,IA-AT-rms,4,,KA,1.31666E-6,0.0,0.0,0,65535,1.0,1.0,P
8,IB-AT-rms,5,,KA,1.96937E-4,0.0,0.0,0,65535,1.0,1.0,P
9,IC-AT-rms,6,,KA,1.53831E-4,0.0,0.0,0,65535,1.0,1.0,P
10,IA-AT-bucha,7,,KA,4.07438E-6,-0.133513,0.0,0,65535,1.0,1.0,P
11,IA-AT-bucha-rms,8,,KA,1.31684E-6,0.0,0.0,0,65535,1.0,1.0,P
12,IAsecAT,1,,Amps,2.03855E-5,-0.668052,0.0,0,65535,1.0,1.0,P
13,IBsecAT,2,,Amps,0.00257501,-38.7453,0.0,0,65535,1.0,1.0,P
14,ICsecAT,3,,Amps,0.00255475,-129.342,0.0,0,65535,1.0,1.0,P
15,S1) VA-BT,1,,kV,0.00349864,-114.632,0.0,0,65535,1.0,1.0,P
16,S1) VB-BT,2,,kV,0.00383419,-135.336,0.0,0,65535,1.0,1.0,P
17,S1) VC-BT,3,,kV,0.00354428,-117.84,0.0,0,65535,1.0,1.0,P
18,IA-BT,1,,KA,8.73794E-6,-0.28632,0.0,0,65535,1.0,1.0,P
19,IB-BT,2,,KA,1.84445E-4,-4.16583,0.0,0,65535,1.0,1.0,P
20,IC-BT,3,,KA,1.84581E-4,-7.92024,0.0,0,65535,1.0,1.0,P
21,IA-BT-rms,4,,KA,2.82628E-6,0.0,0.0,0,65535,1.0,1.0,P
22,IB-BT-rms,5,,KA,5.13131E-5,0.0,0.0,0,65535,1.0,1.0,P
23,IC-BT-rms,6,,KA,6.36177E-5,0.0,0.0,0,65535,1.0,1.0,P
24,IG,7,,KA,3.41614E-6,-0.0679518,0.0,0,65535,1.0,1.0,P
25,IG-rms,8,,KA,8.5068E-7,0.0,0.0,0,65535,1.0,1.0,P
26,IG-A,9,,KA,4.66386E-6,-0.15282,0.0,0,65535,1.0,1.0,P
27,IA-BT-bucha,10,,KA,8.7381E-6,-0.286327,0.0,0,65535,1.0,1.0,P
28,IA-BT-bucha-rms,11,,KA,2.82838E-6,0.0,0.0,0,65535,1.0,1.0,P
29,IAsecBT,1,,Amps,2.18448E-5,-0.715801,0.0,0,65535,1.0,1.0,P
30,IBsecBT,2,,Amps,4.61033E-4,-10.4078,0.0,0,65535,1.0,1.0,P
31,ICsecBT,3,,Amps,4.61282E-4,-19.8019,0.0,0,65535,1.0,1.0,P
32,IGsec,4,,Amps,1.70988E-5,-0.339597,0.0,0,65535,1.0,1.0,P
33,S1) VA-T,1,,kV,3.58775E-4,-11.7568,0.0,0,65535,1.0,1.0,P
34,S1) VB-T,2,,kV,3.58781E-4,-11.7569,0.0,0,65535,1.0,1.0,P
35,S1) VC-T,3,,kV,3.58782E-4,-11.7568,0.0,0,65535,1.0,1.0,P
36,IA-delta,1,,KA,2.48839E-6,-0.0692548,0.0,0,65535,1.0,1.0,P
37,IB-delta,2,,KA,2.51418E-6,-0.066497,0.0,0,65535,1.0,1.0,P
38,IC-delta,3,,KA,2.44446E-6,-0.0637757,0.0,0,65535,1.0,1.0,P
39,IA-delta-rms,4,,KA,5.16737E-7,0.0,0.0,0,65535,1.0,1.0,P
40,IB-delta-rms,5,,KA,5.34045E-7,0.0,0.0,0,65535,1.0,1.0,P
41,IC-delta-rms,6,,KA,5.15123E-7,0.0,0.0,0,65535,1.0,1.0,P
42,IAsec-delta,1,,Amps,1.23478E-5,-0.345555,0.0,0,65535,1.0,1.0,P
43,IBsec-delta,2,,Amps,1.25538E-5,-0.330869,0.0,0,65535,1.0,1.0,P
44,ICsec-delta,3,,Amps,1.20688E-5,-0.318954,0.0,0,65535,1.0,1.0,P
45,IA-T,1,,KA,1.9726E-7,-0.00618759,0.0,0,65535,1.0,1.0,P
46,IB-T,2,,KA,1.88834E-7,-0.00618793,0.0,0,65535,1.0,1.0,P
47,IC-T,3,,KA,1.88832E-7,-0.00618775,0.0,0,65535,1.0,1.0,P
48,t-TRIP-A,1,,-,1.73053E-5,0.0,0.0,0,65535,1.0,1.0,P
49,t-TRIP-B,2,,-,1.73053E-5,0.0,0.0,0,65535,1.0,1.0,P
50,t-TRIP-C,3,,-,1.73002E-5,0.0,0.0,0,65535,1.0,1.0,P
51,t-51-AT,4,,-,0.0,0.0,0.0,0,65535,1.0,1.0,P
52,t-51-AT-PU,5,,-,4.08713E-7,0.0,0.0,0,65535,1.0,1.0,P
53,t-51-BT,6,,-,1.72969E-5,0.0,0.0,0,65535,1.0,1.0,P
54,t-51-BT-PU,7,,-,1.10025E-6,0.0,0.0,0,65535,1.0,1.0,P
55,t-51-SEQ-POS,8,,-,0.0,0.0,0.0,0,65535,1.0,1.0,P
56,t-51G,9,,-,0.0,0.0,0.0,0,65535,1.0,1.0,P
57,t-51G-PU,10,,-,0.0,0.0,0.0,0,65535,1.0,1.0,P
58,t-51N-AT,11,,-,0.0,0.0,0.0,0,65535,1.0,1.0,P
59,t-51N-BT,12,,-,0.0,0.0,0.0,0,65535,1.0,1.0,P
60,t-52-AT,13,,-,6.82307E-7,0.0,0.0,0,65535,1.0,1.0,P
61,t-52-BT,14,,-,1.80614E-5,0.0,0.0,0,65535,1.0,1.0,P
62,t-87-PU,15,,-,1.67849E-7,0.0,0.0,0,65535,1.0,1.0,P
63,t-87-externa,16,,-,2.5597E-7,0.0,0.0,0,65535,1.0,1.0,P
64,t-87-harm,17,,-,0.0,0.0,0.0,0,65535,1.0,1.0,P
65,t-87N,18,,-,0.0,0.0,0.0,0,65535,1.0,1.0,P
66,t-87T,19,,-,1.77081E-7,0.0,0.0,0,65535,1.0,1.0,P
1,START,1,,0
2,52a-AT-A,2,,0
3,52a-AT-B,3,,0
4,52a-AT-C,4,,0
5,52a-BT-A,5,,0
6,52a-BT-B,6,,0
7,52a-BT-C,7,,0
8,TRIP-A,8,,0
9,TRIP-B,9,,0
10,TRIP-C,10,,0
11,87T,11,,0
12,87N,12,,0
13,51-AT,13,,0
14,51N-AT,14,,0
15,51-BT,15,,0
16,51N-BT,16,,0
17,51G,17,,0
18,51-SEQ-POS,18,,0
19,87-PU,19,,0
20,87-externa,20,,0
21,87-harm,21,,0
22,51-AT-PU,22,,0
23,51-BT-PU,23,,0
24,51G-PU,24,,0
25,52aHT13,25,,0
26,52aXT13,26,,0
27,TRIP-86,27,,0
28,TRIP-BT,28,,0
60.0
1
9090.91,9091
14/04/2026,16:31:25.495000
14/04/2026,16:31:25.594979
ASCII
1
12h00, x
F, 3
1,0,12765,40813,44093,14989,14930,50887,65534,438,560,15567,65534,14430,14933,50888,11550,25347,64971,50349,23308,41359,65480,3606,2908,19623,1373,15353,49771,65480,50922,23269,41379,19568,1846,38876,57584,29129,27224,25005,4853,4696,4869,29344,27135,25367,1554,39547,57135,65535,65535,65535,0,57864,65535,17596,0,0,0,0,0,0,65535,0,65535,0,0,0,0,1,1,1,1,1,1,0,0,0,0,0,0,0,0,0,0,0,0,0,0,0,0,0,1,1,0,0
2,110,13793,40110,44222,16146,14920,50887,65534,438,560,16738,65534,15573,14923,50889,12599,24188,65187,49183,23363,41358,65480,3606,2908,19676,1373,16530,48588,65480,49770,23325,41376,19617,2321,37532,58449,29020,27218,24930,4853,4696,4869,29238,27129,25290,1985,38211,58020,65535,65535,65535,0,57864,65535,17596,0,0,0,0,0,0,65535,0,65535,0,0,0,0,1,1,1,1,1,1,0,0,0,0,0,0,0,0,0,0,0,0,0,0,0,0,0,1,1,0,0
3,220,14855,39420,44306,17324,14911,50887,65534,438,560,17936,65534,16737,14914,50889,13683,23049,65351,47985,23418,41359,65480,3606,2908,19742,1373,17737,47377,65480,48588,23380,41376,19675,2849,36183,59277,28911,27210,24857,4853,4696,4869,29129,27123,25217,2464,36861,58864,65535,65535,65535,0,57864,65535,17596,0,0,0,0,0,0,65535,0,65535,0,0,0,0,1,1,1,1,1,1,0,0,0,0,0,0,0,0,0,0,0,0,0,0,0,0,0,1,1,0,0
4,330,15949,38744,44359,18545,14902,50886,65534,438,560,19159,65534,17936,14905,50889,14801,21934,65457,46762,23471,41363,65480,3606,2908,19796,1373,18971,46142,65480,47376,23434,41378,19739,3429,34827,60051,28794,27196,24781,4853,4696,4869,29015,27112,25141,2997,35510,59667,65535,65535,65535,0,57864,65535,17596,0,0,0,0,0,0,65535,0,65535,0,0,0,0,1,1,1,1,1,1,0,0,0,0,0,0,0,0,0,0,0,0,0,0,0,0,0,1,1,0,0
5,440,17073,38081,44372,19772,14893,50885,65534,438,560,20405,65534,19156,14896,50888,15949,20840,65504,45513,23523,41369,65480,3606,2908,19849,1373,20231,44882,65480,46142,23486,41384,19791,4062,33468,60778,28672,27178,24704,4853,4696,4869,28893,27095,25062,3581,34151,60414,65535,65535,65535,0,57864,65535,17596,0,0,0,0,0,0,65535,0,65535,0,0,0,0,1,1,1,1,1,1,0,0,0,0,0,0,0,0,0,0,0,0,0,0,0,0,0,1,1,0,0
6,550,18230,37437,44351,21033,14885,50884,65534,438,560,21675,65534,20404,14887,50886,17127,19769,65503,44243,23573,41378,65480,3606,2908,19910,1382,21515,43596,65480,44882,23537,41392,19849,4740,32102,61461,28555,27164,24635,4853,4696,4869,28772,27078,24989,4209,32787,61120,65535,65535,65535,0,57864,65535,17596,0,0,0,0,0,0,65535,0,65535,0,0,0,0,1,1,1,1,1,1,0,0,0,0,0,0,0,0,0,0,0,0,0,0,0,0,0,1,1,0,0
7,660,19407,36806,44291,22309,14876,50882,65534,438,560,22959,65534,21683,14879,50885,18332,18727,65445,42948,23621,41390,65480,3606,2908,19978,1382,22824,42296,65480,43596,23587,41402,19916,5468,30743,62094,28436,27149,24569,4853,4696,4869,28654,27065,24921,4882,31423,61784,65535,65535,65535,0,57864,65535,17596,0,0,0,0,0,0,65535,0,65535,0,0,0,0,1,1,1,1,1,1,0,0,0,0,0,0,0,0,0,0,0,0,0,0,0,0,0,1,1,0,0
8,770,20605,36194,44193,23603,14868,50879,65534,438,560,24261,65534,22962,14871,50883,19557,17716,65326,41640,23668,41404,65480,3606,2908,20032,1382,24147,40977,65480,42295,23634,41415,19976,6244,29390,62670,28312,27128,24501,4853,4696,4869,28533,27048,24853,5600,30065,62389,65535,65535,65535,0,57864,65535,17596,0,0,0,0,0,0,65535,0,65535,0,0,0,0,1,1,1,1,1,1,0,0,0,0,0,0,0,0,0,0,0,0,0,0,0,0,0,1,1,0,0
9,880,21824,35599,44048,24917,14861,50877,65534,438,560,25578,65534,24255,14863,50880,20806,16730,65147,40312,23713,41421,65480,3606,2908,20082,1382,25489,39642,65480,40978,23680,41431,20026,7067,28039,63198,28188,27107,24435,4853,4696,4869,28407,27025,24785,6365,28713,62942,65535,65535,65535,0,57864,65535,17596,0,0,0,0,0,0,65535,0,65535,0,0,0,0,1,1,1,1,1,1,0,0,0,0,0,0,0,0,0,0,0,0,0,0,0,0,0,1,1,0,0
10,990,23064,35023,43877,26238,14854,50873,65534,438,560,26908,65534,25580,14856,50877,22079,15775,64923,38970,23756,41441,65480,3606,2908,20139,1382,26847,38295,65480,39642,23724,41449,20076,7933,26694,63678,28072,27093,24383,4853,4696,4869,28285,27007,24724,7175,27363,63447,65535,65535,65535,0,57864,65535,17596,0,0,0,0,0,0,65535,0,65535,0,0,0,0,1,1,1,1,1,1,0,0,0,0,0,0,0,0,0,0,0,0,0,0,0,0,0,1,1,0,0
11,1100,24319,34471,43672,27570,14847,50870,65534,438,560,28245,65534,26908,14848,50874,23370,14859,64651,37618,23797,41463,65480,3606,2908,20202,1382,28214,36940,65480,38295,23766,41470,20140,8837,25365,64108,27959,27082,24337,4853,4696,4869,28170,26995,24674,8021,26024,63901,65535,65535,65535,0,57864,65535,17596,0,0,0,0,0,0,65535,0,65535,0,0,0,0,1,1,1,1,1,1,0,0,0,0,0,0,0,0,0,0,0,0,0,0,0,0,0,1,1,0,0
12,1210,25587,33941,43428,28913,14840,50866,65534,438,560,29591,65534,28246,14842,50870,24674,13979,64318,36259,23836,41488,65480,3606,2908,20247,1382,29588,35577,65480,36939,23806,41493,20196,9782,24049,64474,27841,27065,24288,4853,4696,4869,28055,26982,24627,8907,24704,64300,65535,65535,65535,0,57864,65535,17596,0,0,0,0,0,0,65535,0,65535,0,0,0,0,1,1,1,1,1,1,0,0,0,0,0,0,0,0,0,0,0,0,0,0,0,0,0,1,1,0,0
13,1320,26867,33432,43145,30266,14834,50861,65534,438,560,30943,65534,29593,14835,50865,25993,13129,63925,34893,23873,41515,65480,3606,2908,20281,1382,30968,34210,65480,35576,23844,41519,20233,10774,22746,64790,27724,27047,24244,4853,4696,4869,27935,26963,24579,9834,23395,64640,65535,65535,65535,0,57864,65535,17596,0,0,0,0,0,0,65535,0,65535,0,0,0,0,1,1,1,1,1,1,0,0,0,0,0,0,0,0,0,0,0,0,0,0,0,0,0,1,1,0,0
14,1430,28157,32948,42828,31617,14828,50856,65534,438,560,32298,65534,30944,14829,50861,27324,12318,63484,33525,23908,41544,65480,3606,2908,20324,1382,32349,32841,65480,34209,23880,41547,20272,11797,21459,65051,27620,27041,24215,4853,4696,4869,27823,26951,24542,10796,22098,64928,65535,65535,65535,0,57864,65535,17596,0,0,0,0,0,0,65535,0,65535,0,0,0,0,1,1,1,1,1,1,0,0,0,0,0,0,0,0,0,0,0,0,0,0,0,0,0,1,1,0,0
15,1540,29452,32491,42476,32973,14822,50851,65533,438,560,33654,65534,32298,14823,50856,28662,11552,62994,32156,23940,41576,65480,3606,2908,20366,1382,33730,31473,65480,32840,23914,41578,20316,12852,20196,65254,27524,27042,24199,4853,4696,4869,27724,26950,24520,11791,20825,65165,65535,65535,65535,0,57864,65535,17596,0,0,0,0,0,0,65535,0,65535,0,0,0,0,1,1,1,1,1,1,0,0,0,0,0,0,0,0,0,0,0,0,0,0,0,0,0,1,1,0,0
16,1650,30755,32060,42087,34328,14817,50845,65533,438,560,35009,65534,33653,14818,50850,30008,10827,62449,30791,23970,41610,65480,3606,2908,20386,1382,35103,30111,65480,31473,23945,41611,20348,13945,18957,65401,27431,27044,24186,4853,4696,4869,27628,26951,24505,12819,19575,65341,65535,65535,65535,0,57864,65535,17596,0,0,0,0,0,0,65535,0,65535,0,0,0,0,1,1,1,1,1,1,0,0,0,0,0,0,0,0,0,0,0,0,0,0,0,0,0,1,1,0,0
17,1760,32062,31653,41663,35681,14812,50839,65533,438,560,36360,65534,35008,14813,50844,31358,10138,61853,29432,23998,41646,65480,3606,2908,20396,1382,36468,28755,65480,30111,23974,41646,20361,15070,17738,65495,27345,27051,24184,4853,4696,4869,27537,26954,24497,13880,18344,65458,65535,65535,65535,0,57864,65535,17596,0,0,0,0,0,0,65535,0,65535,0,0,0,0,1,1,1,1,1,1,0,0,0,0,0,0,0,0,0,0,0,0,0,0,0,0,0,1,1,0,0
18,1870,33370,31274,41206,37029,14808,50833,65533,438,560,37705,65534,36359,14809,50838,32711,9494,61211,28080,24024,41685,65480,3606,2908,20407,1382,37822,27408,65480,28755,24001,41683,20371,16223,16546,65533,27274,27072,24201,4853,4696,4869,27457,26968,24504,14973,17141,65523,65535,65535,65535,0,57864,65535,17596,0,0,0,0,0,0,65535,0,65535,0,0,0,0,1,1,1,1,1,1,0,0,0,0,0,0,0,0,0,0,0,0,0,0,0,0,0,1,1,0,0
19,1980,34678,30924,40716,38371,14804,50826,65533,438,560,39043,65534,37704,14805,50831,34064,8898,60524,26738,24046,41725,65480,3606,2908,20412,1382,39163,26072,65480,27407,24025,41723,20381,17406,15386,65515,27216,27102,24231,4853,4696,4869,27394,26994,24529,16091,15965,65531,65535,65535,65535,0,57864,65535,17596,0,0,0,0,0,0,65535,0,65535,0,0,0,0,1,1,1,1,1,1,0,0,0,0,0,0,0,0,0,0,0,0,0,0,0,0,0,1,1,0,0
20,2090,35983,30601,40194,39704,14801,50819,65533,438,560,40370,65534,39042,14801,50824,35415,8346,59786,25411,24067,41768,65480,3606,2908,20397,1382,40487,24752,65480,26072,24046,41765,20376,18615,14253,65438,27163,27135,24270,4853,4696,4869,27337,27026,24564,17235,14819,65480,65535,65535,65535,0,57864,65535,17596,0,0,0,0,0,0,65535,0,65535,0,0,0,0,1,1,1,1,1,1,0,0,0,0,0,0,0,0,0,0,0,0,0,0,0,0,0,1,1,0,0
21,2200,37283,30305,39640,41024,14798,50811,65533,438,560,41684,65534,40368,14798,50817,36760,7838,59000,24099,24085,41813,65480,3606,2908,20371,1382,41792,23448,65480,24752,24066,41808,20353,19848,13151,65304,27119,27176,24320,4853,4696,4869,27288,27063,24607,18408,13702,65375,65535,65535,65535,0,57864,65535,17596,0,0,0,0,0,0,65535,0,65535,0,0,0,0,1,1,1,1,1,1,0,0,0,0,0,0,0,0,0,0,0,0,0,0,0,0,0,1,1,0,0
22,2310,38578,30039,39056,42331,14795,50804,65533,438,560,42985,65534,41681,14795,50809,38099,7378,58171,22802,24100,41859,65480,3606,2908,20346,1382,43077,22160,65480,23448,24082,41854,20328,21106,12084,65116,27090,27230,24387,4853,4696,4869,27251,27110,24667,19601,12615,65215,65535,65535,65535,0,57864,65535,17596,0,0,0,0,0,0,65535,0,65535,0,0,0,0,1,1,1,1,1,1,0,0,0,0,0,0,0,0,0,0,0,0,0,0,0,0,0,1,1,0,0
23,2420,39861,29803,38445,43626,14793,50796,65533,438,560,44268,65534,42983,14792,50802,39430,6970,57301,21524,24113,41908,65480,3606,2908,20317,1382,44343,20893,65480,22160,24096,41901,20303,22383,11052,64869,27072,27289,24465,4853,4696,4869,27229,27168,24742,20815,11564,64998,65535,65535,65535,0,57864,65535,17596,0,0,0,0,0,0,65535,0,65535,0,0,0,0,1,1,1,1,1,1,0,0,0,0,0,0,0,0,0,0,0,0,0,0,0,0,0,1,1,0,0
24,2530,41131,29595,37804,44898,14791,50787,65533,438,560,45530,65534,44266,14790,50793,40749,6608,56388,20268,24123,41958,65480,3606,2908,20271,1382,45584,19649,65480,20893,24108,41951,20264,23681,10058,64569,27056,27351,24550,4853,4696,4869,27212,27229,24825,22048,10549,64727,65535,65535,65535,0,57864,65535,17596,0,0,0,0,0,0,65535,0,65535,0,0,0,0,1,1,1,1,1,1,0,0,0,0,0,0,0,0,0,0,0,0,0,0,0,0,0,1,1,0,0
25,2640,42387,29417,37138,46149,14790,50779,65533,438,560,46772,65534,45528,14789,50785,42054,6293,55433,19035,24130,42010,65480,3606,2908,20218,1382,46802,18426,65480,19648,24117,42002,20212,24995,9099,64213,27047,27415,24642,4853,4696,4869,27199,27291,24913,23297,9570,64398,65535,65535,65535,0,57864,65535,17596,0,0,0,0,0,0,65535,0,65535,0,0,0,0,1,1,1,1,1,1,0,0,0,0,0,0,0,0,0,0,0,0,0,0,0,0,0,1,1,0,0
26,2750,43626,29270,36450,47380,14789,50770,65533,438,560,47990,65534,46768,14788,50776,43345,6030,54443,17823,24135,42063,65480,3606,2908,20172,1382,47996,17228,65480,18425,24123,42054,20163,26323,8181,63805,27049,27488,24745,4853,4696,4869,27195,27359,25011,24563,8632,64016,65535,65535,65535,0,57864,65535,17596,0,0,0,0,0,0,65535,0,65535,0,0,0,0,1,1,1,1,1,1,0,0,0,0,0,0,0,0,0,0,0,0,0,0,0,0,0,1,1,0,0
27,2860,44846,29155,35738,48586,14789,50761,65533,438,560,49182,65534,47988,14787,50767,44618,5818,53420,16637,24137,42118,65480,3606,2908,20123,1382,49164,16056,65480,17227,24126,42108,20117,27661,7304,63342,27055,27561,24854,4853,4696,4869,27200,27433,25120,25838,7735,63580,65535,65535,65535,0,57864,65535,17596,0,0,0,0,0,0,65535,0,65535,0,0,0,0,1,1,1,1,1,1,0,0,0,0,0,0,0,0,0,0,0,0,0,0,0,0,0,1,1,0,0
28,2970,46044,29063,35003,49768,14788,50751,65533,438,560,50345,65534,49177,14787,50758,45871,5653,52358,15479,24137,42174,65480,3606,2908,20062,1382,50304,14913,65480,16056,24127,42164,20062,29010,6469,62827,27061,27631,24965,4853,4696,4869,27206,27505,25232,27122,6879,63089,65535,65535,65535,0,57864,65535,17596,0,0,0,0,0,0,65535,0,65535,0,0,0,0,1,1,1,1,1,1,0,0,0,0,0,0,0,0,0,0,0,0,0,0,0,0,0,1,1,0,0
29,3080,47219,29010,34245,50911,14789,50742,65533,438,560,51477,65534,50345,14787,50748,47102,5541,51261,14351,24134,42232,65480,3606,2908,19996,1382,51416,13800,65480,14913,24125,42221,19994,30368,5679,62258,27072,27702,25079,4853,4696,4869,27213,27575,25345,28419,6068,62551,65535,65535,65535,0,57864,65535,17596,0,0,0,0,0,0,65535,0,65535,0,0,0,0,1,1,1,1,1,1,0,0,0,0,0,0,0,0,0,0,0,0,0,0,0,0,0,1,1,0,0
30,3190,48369,28991,33468,52023,14790,50732,65533,438,560,52579,65534,51470,14788,50739,48307,5486,50135,13253,24128,42290,65480,3606,2908,19945,1382,52497,12717,65480,13799,24121,42279,19939,31729,4942,61637,27089,27777,25202,4853,4696,4869,27228,27649,25466,29718,5302,61958,65535,65535,65535,0,57864,65535,17596,0,0,0,0,0,0,65535,0,65535,0,0,0,0,1,1,1,1,1,1,0,0,0,0,0,0,0,0,0,0,0,0,0,0,0,0,0,1,1,0,0
31,3300,49487,29004,32666,53114,14791,50722,65533,438,560,53647,65534,52572,14789,50729,49488,5480,48980,12184,24119,42350,65480,3606,2908,19890,1382,53550,11666,65480,12716,24114,42339,19887,33091,4246,60968,27106,27847,25324,4853,4696,4869,27247,27723,25591,31020,4586,61313,65535,65535,65535,0,57864,65535,17596,0,0,0,0,0,0,65535,0,65535,0,0,0,0,1,1,1,1,1,1,0,0,0,0,0,0,0,0,0,0,0,0,0,0,0,0,0,1,1,0,0
32,3410,50583,29047,31851,54164,14793,50712,65533,438,560,54675,65534,53649,14791,50719,50640,5520,47798,11155,24108,42411,65480,3606,2908,19819,1382,54565,10655,65480,11664,24104,42399,19823,34453,3599,60254,27119,27912,25443,4853,4696,4869,27261,27789,25712,32323,3915,60619,65535,65535,65535,0,57864,65535,17596,0,0,0,0,0,0,65535,0,65535,0,0,0,0,1,1,1,1,1,1,0,0,0,0,0,0,0,0,0,0,0,0,0,0,0,0,0,1,1,0,0
33,3520,51646,29121,31020,55174,14795,50701,65533,438,560,55668,65534,54674,14793,50708,51756,5612,46593,10161,24095,42473,65480,3606,2908,19759,1382,55544,9677,65480,10655,24092,42461,19757,35809,3005,59496,27137,27975,25566,4853,4696,4869,27275,27852,25834,33626,3298,59880,65535,65535,65535,0,57864,65535,17596,0,0,0,0,0,0,65535,0,65535,0,0,0,0,1,1,1,1,1,1,0,0,0,0,0,0,0,0,0,0,0,0,0,0,0,0,0,1,1,0,0
34,3630,52680,29235,30173,56150,14798,50691,65533,438,560,56624,65534,55664,14795,50698,52844,5762,45366,9201,24078,42536,65480,3606,2908,19710,1382,56491,8736,65480,9678,24076,42523,19705,37159,2463,58684,27159,28039,25693,4853,4696,4869,27297,27918,25962,34921,2731,59091,65535,65535,65535,0,57864,65535,17596,0,0,0,0,0,0,65535,0,65535,0,0,0,0,1,1,1,1,1,1,0,0,0,0,0,0,0,0,0,0,0,0,0,0,0,0,0,1,1,0,0
35,3740,53682,29373,29311,57085,14801,50680,65533,438,560,57536,65534,56626,14798,50688,53899,5958,44115,8281,24059,42599,65480,3606,2908,19658,1382,57399,7838,65480,8736,24059,42586,19660,38507,1972,57830,27176,28095,25814,4853,4696,4869,27318,27979,26089,36216,2217,58256,65535,65535,65535,0,57864,65535,17596,0,0,0,0,0,0,65535,0,65535,0,0,0,0,1,1,1,1,1,1,0,0,0,0,0,0,0,0,0,0,0,0,0,0,0,0,0,1,1,0,0
36,3850,54647,29538,28437,57970,14805,50670,65533,438,560,58402,65534,57532,14801,50677,54914,6196,42846,7406,24038,42663,65480,3606,2908,19594,1382,58262,6984,65480,7838,24039,42650,19597,39840,1529,56937,27187,28140,25929,4853,4696,4869,27331,28029,26207,37501,1751,57382,65535,65535,65535,0,57864,65535,17596,0,0,0,0,0,0,65535,0,65535,0,0,0,0,1,1,1,1,1,1,0,0,0,0,0,0,0,0,0,0,0,0,0,0,0,0,0,1,1,0,0
37,3960,55573,29734,27553,58814,14809,50659,65533,438,560,59228,65534,58403,14805,50666,55888,6491,41561,6572,24014,42727,65480,3606,2908,19545,1382,59085,6170,65480,6983,24016,42714,19538,41158,1147,56001,27203,28187,26048,4853,4696,4869,27343,28073,26324,38770,1336,56468,65535,65535,65535,0,57864,65535,17596,0,0,0,0,0,0,65535,0,65535,0,0,0,0,1,1,1,1,1,1,0,0,0,0,0,0,0,0,0,0,0,0,0,0,0,0,0,1,1,0,0
38,4070,56462,29962,26660,59622,14813,50648,65533,438,560,60009,65534,59226,14809,50656,56826,6843,40261,5778,23987,42792,65480,3606,2908,19510,1382,59869,5399,65480,6170,23991,42778,19498,42466,823,55020,27221,28232,26168,4853,4696,4869,27362,28121,26447,40028,982,55511,65535,65535,65535,0,57864,65535,17596,0,0,0,0,0,0,65535,0,65535,0,0,0,0,1,1,1,1,1,1,0,0,0,0,0,0,0,0,0,0,0,0,0,0,0,0,0,1,1,0,0
