WinUan/Exportaçăo,001,1999
21,6A,15D
01,LT VĂĄrzea da Palma 1 - 345 kV || IVm (Corrente fase vermelha),VM,1P,A,0.140740,0.000000,0,-32767,32767,200.000000,1.000000,P
02,LT VĂĄrzea da Palma 1 - 345 kV || IAz (Corrente fase azul),AZ,1P,A,0.011825,0.000000,0,-32767,32767,200.000000,1.000000,P
03,LT VĂĄrzea da Palma 1 - 345 kV || IBr (Corrente fase branca),BR,1P,A,0.142843,0.000000,0,-32767,32767,200.000000,1.000000,P
04,LT VĂĄrzea da Palma 1 - 345 kV || VVm (TensĂŁo fase vermelha),VM,1P,V,14.260872,0.000000,0,-32767,32767,3000.000000,1.000000,P
05,LT VĂĄrzea da Palma 1 - 345 kV || VAz (TensĂŁo fase azul),AZ,1P,V,18.034791,0.000000,0,-32767,32767,3000.000000,1.000000,P
06,LT VĂĄrzea da Palma 1 - 345 kV || VBr (TensĂŁo fase branca),BR,1P,V,12.916471,0.000000,0,-32767,32767,3000.000000,1.000000,P
01,1P77-1-2,,1P,0
02,1P85-1-2,,1P,0
03,1P21P-Z1,,1P,0
04,1P21P-Z2,,1P,0
05,1P21P-POTT,,1P,0
06,1P21P-79,,1P,0
07,1P21P-77,,1P,0
08,1P21P67NLP_SB,,1P,0
09,1P4,,1P,0
10,1P21S-Z1,,1P,0
11,1P21S-Z2,,1P,0
12,1P21S-POTT,,1P,0
13,1P21S-79,,1P,0
14,1P21S-77,,1P,0
15,1P21S67NLP_SB,,1P,0
60
1
3840,8448
17/03/2026,12:43:59.132161
17/03/2026,12:43:58.828516
ASCII
0000000001,0000000000,000795,002328,-00978,016219,-14580,002418,0,0,0,0,0,0,0,0,0,0,0,0,0,0,0
0000000002,0000000260,001664,-08125,-00976,016141,-14744,002776,0,0,0,0,0,0,0,0,0,0,0,0,0,0,0
0000000003,0000000520,001757,-07518,-01115,017079,-14125,000913,0,0,0,0,0,0,0,0,0,0,0,0,0,0,0
0000000004,0000000781,001754,-05692,-01247,017998,-13319,-01202,0,0,0,0,0,0,0,0,0,0,0,0,0,0,0
0000000005,0000001041,001687,-03443,-01372,018817,-12402,-03370,0,0,0,0,0,0,0,0,0,0,0,0,0,0,0
0000000006,0000001302,001623,-01349,-01474,019492,-11379,-05551,0,0,0,0,0,0,0,0,0,0,0,0,0,0,0
0000000007,0000001562,001538,000713,-01559,020007,-10247,-07679,0,0,0,0,0,0,0,0,0,0,0,0,0,0,0
0000000008,0000001822,001461,002746,-01634,020323,-09013,-09716,0,0,0,0,0,0,0,0,0,0,0,0,0,0,0
0000000009,0000002083,001338,004842,-01692,020403,-07662,-11642,0,0,0,0,0,0,0,0,0,0,0,0,0,0,0
0000000010,0000002343,001202,006939,-01729,020224,-06216,-13440,0,0,0,0,0,0,0,0,0,0,0,0,0,0,0
0000000011,0000002604,001060,008896,-01748,019820,-04701,-15074,0,0,0,0,0,0,0,0,0,0,0,0,0,0,0
0000000012,0000002864,000944,010608,-01791,019214,-03167,-16570,0,0,0,0,0,0,0,0,0,0,0,0,0,0,0
0000000013,0000003125,000798,012485,-01793,018436,-01629,-17883,0,0,0,0,0,0,0,0,0,0,0,0,0,0,0
0000000014,0000003385,000632,014176,-01772,017524,-00109,-19012,0,0,0,0,0,0,0,0,0,0,0,0,0,0,0
0000000015,0000003645,000445,015809,-01728,016471,001406,-19991,0,0,0,0,0,0,0,0,0,0,0,0,0,0,0
0000000016,0000003906,000255,017207,-01670,015273,002925,-20809,0,0,0,0,0,0,0,0,0,0,0,0,0,0,0
0000000017,0000004166,000122,018349,-01615,013917,004456,-21471,0,0,0,0,0,0,0,0,0,0,0,0,0,0,0
0000000018,0000004427,-00031,019226,-01539,012400,005971,-21951,0,0,0,0,0,0,0,0,0,0,0,0,0,0,0
0000000019,0000004687,-00208,019947,-01432,010733,007442,-22221,0,0,0,0,0,0,0,0,0,0,0,0,0,0,0
0000000020,0000004947,-00390,020586,-01293,008947,008846,-22248,0,0,0,0,0,0,0,0,0,0,0,0,0,0,0
0000000021,0000005208,-00568,021165,-01165,007080,010141,-22004,0,0,0,0,0,0,0,0,0,0,0,0,0,0,0
0000000022,0000005468,-00703,021309,-01043,005171,011312,-21527,0,0,0,0,0,0,0,0,0,0,0,0,0,0,0
0000000023,0000005729,-00842,021386,-00918,003241,012353,-20826,0,0,0,0,0,0,0,0,0,0,0,0,0,0,0
0000000024,0000005989,-01004,021097,-00741,001295,013264,-19939,0,0,0,0,0,0,0,0,0,0,0,0,0,0,0
0000000025,0000006250,-01172,020883,-00561,-00645,014054,-18901,0,0,0,0,0,0,0,0,0,0,0,0,0,0,0
0000000026,0000006510,-01303,020409,-00376,-02604,014736,-17684,0,0,0,0,0,0,0,0,0,0,0,0,0,0,0
0000000027,0000006770,-01392,019598,-00208,-04569,015295,-16299,0,0,0,0,0,0,0,0,0,0,0,0,0,0,0
0000000028,0000007031,-01474,018507,-00051,-06519,015717,-14727,0,0,0,0,0,0,0,0,0,0,0,0,0,0,0
0000000029,0000007291,-01563,017353,000135,-08395,015979,-12982,0,0,0,0,0,0,0,0,0,0,0,0,0,0,0
0000000030,0000007552,-01656,016033,000317,-10189,016092,-11114,0,0,0,0,0,0,0,0,0,0,0,0,0,0,0
0000000031,0000007812,-01709,014659,000492,-11872,016020,-09158,0,0,0,0,0,0,0,0,0,0,0,0,0,0,0
0000000032,0000008072,-01705,012805,000637,-13413,015773,-07150,0,0,0,0,0,0,0,0,0,0,0,0,0,0,0
0000000033,0000008333,-01708,011090,000781,-14789,015378,-05126,0,0,0,0,0,0,0,0,0,0,0,0,0,0,0
0000000034,0000008593,-01750,009496,000944,-16014,014824,-03058,0,0,0,0,0,0,0,0,0,0,0,0,0,0,0
0000000035,0000008854,-01772,007528,001115,-17066,014140,-00974,0,0,0,0,0,0,0,0,0,0,0,0,0,0,0
0000000036,0000009114,-01754,005645,001244,-17992,013338,001155,0,0,0,0,0,0,0,0,0,0,0,0,0,0,0
0000000037,0000009375,-01678,003391,001362,-18788,012426,003318,0,0,0,0,0,0,0,0,0,0,0,0,0,0,0
0000000038,0000009635,-01622,001276,001472,-19457,011411,005495,0,0,0,0,0,0,0,0,0,0,0,0,0,0,0
0000000039,0000009895,-01555,-00773,001557,-19983,010273,007656,0,0,0,0,0,0,0,0,0,0,0,0,0,0,0
0000000040,0000010156,-01460,-02833,001633,-20304,009028,009700,0,0,0,0,0,0,0,0,0,0,0,0,0,0,0
0000000041,0000010416,-01341,-04865,001686,-20411,007676,011625,0,0,0,0,0,0,0,0,0,0,0,0,0,0,0
0000000042,0000010677,-01206,-07035,001740,-20234,006225,013409,0,0,0,0,0,0,0,0,0,0,0,0,0,0,0
0000000043,0000010937,-01053,-09049,001762,-19820,004725,015036,0,0,0,0,0,0,0,0,0,0,0,0,0,0,0
0000000044,0000011197,-00949,-10734,001803,-19218,003191,016505,0,0,0,0,0,0,0,0,0,0,0,0,0,0,0
0000000045,0000011458,-00822,-12421,001794,-18423,001657,017810,0,0,0,0,0,0,0,0,0,0,0,0,0,0,0
0000000046,0000011718,-00649,-14092,001776,-17495,000124,018959,0,0,0,0,0,0,0,0,0,0,0,0,0,0,0
0000000047,0000011979,-00449,-15885,001727,-16460,-01396,019964,0,0,0,0,0,0,0,0,0,0,0,0,0,0,0
0000000048,0000012239,-00271,-17266,001672,-15293,-02917,020823,0,0,0,0,0,0,0,0,0,0,0,0,0,0,0
0000000049,0000012500,-00140,-18204,001600,-13955,-04452,021517,0,0,0,0,0,0,0,0,0,0,0,0,0,0,0
0000000050,0000012760,000012,-19057,001524,-12464,-05957,022007,0,0,0,0,0,0,0,0,0,0,0,0,0,0,0
0000000051,0000013020,000198,-19886,001415,-10804,-07416,022268,0,0,0,0,0,0,0,0,0,0,0,0,0,0,0
0000000052,0000013281,000385,-20543,001290,-09027,-08802,022273,0,0,0,0,0,0,0,0,0,0,0,0,0,0,0
0000000053,0000013541,000555,-21077,001164,-07140,-10093,021998,0,0,0,0,0,0,0,0,0,0,0,0,0,0,0
0000000054,0000013802,000676,-21172,001051,-05203,-11268,021483,0,0,0,0,0,0,0,0,0,0,0,0,0,0,0
0000000055,0000014062,000830,-21334,000923,-03257,-12321,020769,0,0,0,0,0,0,0,0,0,0,0,0,0,0,0
0000000056,0000014322,000997,-21355,000746,-01299,-13245,019880,0,0,0,0,0,0,0,0,0,0,0,0,0,0,0
0000000057,0000014583,001168,-21154,000563,000636,-14046,018862,0,0,0,0,0,0,0,0,0,0,0,0,0,0,0
0000000058,0000014843,001290,-20402,000384,002586,-14724,017687,0,0,0,0,0,0,0,0,0,0,0,0,0,0,0
0000000059,0000015104,001381,-19609,000223,004537,-15285,016329,0,0,0,0,0,0,0,0,0,0,0,0,0,0,0
0000000060,0000015364,001457,-18609,000066,006482,-15704,014769,0,0,0,0,0,0,0,0,0,0,0,0,0,0,0
0000000061,0000015625,001560,-17374,-00130,008364,-15972,013047,0,0,0,0,0,0,0,0,0,0,0,0,0,0,0
0000000062,0000015885,001637,-15986,-00318,010154,-16086,011173,0,0,0,0,0,0,0,0,0,0,0,0,0,0,0
0000000063,0000016145,001689,-14471,-00494,011837,-16020,009204,0,0,0,0,0,0,0,0,0,0,0,0,0,0,0
0000000064,0000016406,001704,-12827,-00652,013359,-15785,007197,0,0,0,0,0,0,0,0,0,0,0,0,0,0,0
0000000065,0000016666,001728,-11151,-00798,014730,-15394,005173,0,0,0,0,0,0,0,0,0,0,0,0,0,0,0
0000000066,0000016927,001752,-09460,-00950,015957,-14839,003111,0,0,0,0,0,0,0,0,0,0,0,0,0,0,0
0000000067,0000017187,001752,-07715,-01107,017031,-14153,001011,0,0,0,0,0,0,0,0,0,0,0,0,0,0,0
0000000068,0000017447,001742,-05758,-01242,017965,-13344,-01120,0,0,0,0,0,0,0,0,0,0,0,0,0,0,0
0000000069,0000017708,001685,-03535,-01367,018788,-12437,-03300,0,0,0,0,0,0,0,0,0,0,0,0,0,0,0
0000000070,0000017968,001627,-01419,-01471,019474,-11421,-05480,0,0,0,0,0,0,0,0,0,0,0,0,0,0,0
0000000071,0000018229,001555,000635,-01554,020005,-10295,-07612,0,0,0,0,0,0,0,0,0,0,0,0,0,0,0
0000000072,0000018489,001453,002695,-01635,020318,-09063,-09647,0,0,0,0,0,0,0,0,0,0,0,0,0,0,0
0000000073,0000018750,001339,004768,-01685,020411,-07713,-11572,0,0,0,0,0,0,0,0,0,0,0,0,0,0,0
0000000074,0000019010,001206,006889,-01729,020240,-06263,-13385,0,0,0,0,0,0,0,0,0,0,0,0,0,0,0
0000000075,0000019270,001066,008937,-01752,019830,-04751,-15022,0,0,0,0,0,0,0,0,0,0,0,0,0,0,0
0000000076,0000019531,000957,010817,-01784,019234,-03211,-16519,0,0,0,0,0,0,0,0,0,0,0,0,0,0,0
0000000077,0000019791,000813,012435,-01785,018460,-01680,-17836,0,0,0,0,0,0,0,0,0,0,0,0,0,0,0
0000000078,0000020052,000643,014058,-01764,017542,-00165,-18976,0,0,0,0,0,0,0,0,0,0,0,0,0,0,0
0000000079,0000020312,000450,015794,-01732,016502,001353,-19947,0,0,0,0,0,0,0,0,0,0,0,0,0,0,0
0000000080,0000020572,000268,017301,-01678,015324,002873,-20776,0,0,0,0,0,0,0,0,0,0,0,0,0,0,0
0000000081,0000020833,000128,018320,-01619,013974,004410,-21456,0,0,0,0,0,0,0,0,0,0,0,0,0,0,0
0000000082,0000021093,-00023,019223,-01546,012451,005929,-21939,0,0,0,0,0,0,0,0,0,0,0,0,0,0,0
0000000083,0000021354,-00206,019996,-01430,010788,007397,-22212,0,0,0,0,0,0,0,0,0,0,0,0,0,0,0
0000000084,0000021614,-00391,020647,-01300,009015,008801,-22253,0,0,0,0,0,0,0,0,0,0,0,0,0,0,0
0000000085,0000021875,-00563,021214,-01181,007141,010106,-22019,0,0,0,0,0,0,0,0,0,0,0,0,0,0,0
0000000086,0000022135,-00702,021273,-01055,005244,011270,-21539,0,0,0,0,0,0,0,0,0,0,0,0,0,0,0
0000000087,0000022395,-00838,021314,-00909,003313,012321,-20850,0,0,0,0,0,0,0,0,0,0,0,0,0,0,0
0000000088,0000022656,-00999,021196,-00741,001370,013234,-19969,0,0,0,0,0,0,0,0,0,0,0,0,0,0,0
0000000089,0000022916,-01163,020997,-00565,-00575,014036,-18937,0,0,0,0,0,0,0,0,0,0,0,0,0,0,0
0000000090,0000023177,-01299,020598,-00394,-02539,014718,-17732,0,0,0,0,0,0,0,0,0,0,0,0,0,0,0
0000000091,0000023437,-01394,019731,-00219,-04510,015282,-16348,0,0,0,0,0,0,0,0,0,0,0,0,0,0,0
0000000092,0000023697,-01461,018545,-00053,-06465,015707,-14782,0,0,0,0,0,0,0,0,0,0,0,0,0,0,0
0000000093,0000023958,-01557,017315,000119,-08341,015977,-13048,0,0,0,0,0,0,0,0,0,0,0,0,0,0,0
0000000094,0000024218,-01653,016133,000316,-10144,016092,-11179,0,0,0,0,0,0,0,0,0,0,0,0,0,0,0
0000000095,0000024479,-01705,014783,000479,-11822,016026,-09216,0,0,0,0,0,0,0,0,0,0,0,0,0,0,0
0000000096,0000024739,-01716,012929,000634,-13353,015779,-07211,0,0,0,0,0,0,0,0,0,0,0,0,0,0,0
0000000097,0000025000,-01720,011093,000779,-14734,015390,-05198,0,0,0,0,0,0,0,0,0,0,0,0,0,0,0
0000000098,0000025260,-01749,009480,000945,-15958,014838,-03125,0,0,0,0,0,0,0,0,0,0,0,0,0,0,0
0000000099,0000025520,-01770,007686,001107,-17027,014159,-01041,0,0,0,0,0,0,0,0,0,0,0,0,0,0,0
0000000100,0000025781,-01735,005777,001247,-17950,013364,001074,0,0,0,0,0,0,0,0,0,0,0,0,0,0,0
0000000101,0000026041,-01687,003456,001359,-18760,012457,003240,0,0,0,0,0,0,0,0,0,0,0,0,0,0,0
0000000102,0000026302,-01611,001366,001467,-19438,011446,005422,0,0,0,0,0,0,0,0,0,0,0,0,0,0,0
0000000103,0000026562,-01543,-00592,001550,-19964,010312,007572,0,0,0,0,0,0,0,0,0,0,0,0,0,0,0
0000000104,0000026822,-01462,-02579,001629,-20301,009076,009622,0,0,0,0,0,0,0,0,0,0,0,0,0,0,0
0000000105,0000027083,-01339,-04767,001676,-20406,007728,011562,0,0,0,0,0,0,0,0,0,0,0,0,0,0,0
0000000106,0000027343,-01203,-06933,001722,-20246,006276,013360,0,0,0,0,0,0,0,0,0,0,0,0,0,0,0
0000000107,0000027604,-01066,-09119,001755,-19835,004778,014979,0,0,0,0,0,0,0,0,0,0,0,0,0,0,0
0000000108,0000027864,-00953,-10630,001791,-19229,003250,016454,0,0,0,0,0,0,0,0,0,0,0,0,0,0,0
0000000109,0000028125,-00821,-12313,001787,-18447,001711,017764,0,0,0,0,0,0,0,0,0,0,0,0,0,0,0
0000000110,0000028385,-00650,-14069,001771,-17531,000187,018912,0,0,0,0,0,0,0,0,0,0,0,0,0,0,0
0000000111,0000028645,-00456,-15889,001725,-16491,-01345,019930,0,0,0,0,0,0,0,0,0,0,0,0,0,0,0
0000000112,0000028906,-00272,-17207,001671,-15333,-02867,020793,0,0,0,0,0,0,0,0,0,0,0,0,0,0,0
0000000113,0000029166,-00138,-18250,001607,-14004,-04399,021501,0,0,0,0,0,0,0,0,0,0,0,0,0,0,0
0000000114,0000029427,000019,-19078,001526,-12512,-05907,022000,0,0,0,0,0,0,0,0,0,0,0,0,0,0,0
0000000115,0000029687,000204,-19864,001427,-10866,-07368,022260,0,0,0,0,0,0,0,0,0,0,0,0,0,0,0
0000000116,0000029947,000394,-20539,001298,-09077,-08763,022275,0,0,0,0,0,0,0,0,0,0,0,0,0,0,0
0000000117,0000030208,000559,-21082,001173,-07200,-10050,022003,0,0,0,0,0,0,0,0,0,0,0,0,0,0,0
0000000118,0000030468,000680,-21313,001056,-05278,-11219,021490,0,0,0,0,0,0,0,0,0,0,0,0,0,0,0
0000000119,0000030729,000821,-21401,000917,-03331,-12270,020788,0,0,0,0,0,0,0,0,0,0,0,0,0,0,0
0000000120,0000030989,000993,-21305,000752,-01372,-13200,019918,0,0,0,0,0,0,0,0,0,0,0,0,0,0,0
0000000121,0000031250,001161,-21055,000571,000565,-14009,018911,0,0,0,0,0,0,0,0,0,0,0,0,0,0,0
0000000122,0000031510,001299,-20562,000390,002519,-14709,017736,0,0,0,0,0,0,0,0,0,0,0,0,0,0,0
0000000123,0000031770,001385,-19782,000224,004475,-15274,016390,0,0,0,0,0,0,0,0,0,0,0,0,0,0,0
0000000124,0000032031,001470,-18689,000064,006421,-15705,014841,0,0,0,0,0,0,0,0,0,0,0,0,0,0,0
0000000125,0000032291,001553,-17495,-00128,008301,-15972,013113,0,0,0,0,0,0,0,0,0,0,0,0,0,0,0
0000000126,0000032552,001630,-16058,-00310,010105,-16090,011239,0,0,0,0,0,0,0,0,0,0,0,0,0,0,0
0000000127,0000032812,001691,-14614,-00488,011788,-16029,009261,0,0,0,0,0,0,0,0,0,0,0,0,0,0,0
0000000128,0000033072,001708,-13052,-00635,013316,-15796,007255,0,0,0,0,0,0,0,0,0,0,0,0,0,0,0
0000000129,0000033333,001734,-11333,-00786,014699,-15413,005226,0,0,0,0,0,0,0,0,0,0,0,0,0,0,0
0000000130,0000033593,001756,-09719,-00936,015915,-14865,003173,0,0,0,0,0,0,0,0,0,0,0,0,0,0,0
0000000131,0000033854,001760,-07661,-01097,016993,-14187,001091,0,0,0,0,0,0,0,0,0,0,0,0,0,0,0
0000000132,0000034114,001752,-05951,-01235,017938,-13381,-01045,0,0,0,0,0,0,0,0,0,0,0,0,0,0,0
0000000133,0000034375,001702,-03839,-01356,018764,-12473,-03215,0,0,0,0,0,0,0,0,0,0,0,0,0,0,0
0000000134,0000034635,001627,-01548,-01459,019457,-11456,-05399,0,0,0,0,0,0,0,0,0,0,0,0,0,0,0
0000000135,0000034895,001542,000572,-01557,019984,-10332,-07542,0,0,0,0,0,0,0,0,0,0,0,0,0,0,0
0000000136,0000035156,001462,002681,-01634,020310,-09097,-09587,0,0,0,0,0,0,0,0,0,0,0,0,0,0,0
0000000137,0000035416,001351,004612,-01686,020407,-07759,-11520,0,0,0,0,0,0,0,0,0,0,0,0,0,0,0
0000000138,0000035677,001214,006746,-01728,020246,-06306,-13333,0,0,0,0,0,0,0,0,0,0,0,0,0,0,0
0000000139,0000035937,001070,008848,-01748,019843,-04802,-14972,0,0,0,0,0,0,0,0,0,0,0,0,0,0,0
0000000140,0000036197,000950,010511,-01776,019256,-03269,-16475,0,0,0,0,0,0,0,0,0,0,0,0,0,0,0
0000000141,0000036458,000811,012263,-01793,018493,-01731,-17799,0,0,0,0,0,0,0,0,0,0,0,0,0,0,0
0000000142,0000036718,000649,014060,-01774,017582,-00208,-18945,0,0,0,0,0,0,0,0,0,0,0,0,0,0,0
0000000143,0000036979,000462,015666,-01727,016543,001304,-19926,0,0,0,0,0,0,0,0,0,0,0,0,0,0,0
0000000144,0000037239,000271,017183,-01670,015365,002818,-20756,0,0,0,0,0,0,0,0,0,0,0,0,0,0,0
0000000145,0000037500,000126,018361,-01629,014023,004357,-21434,0,0,0,0,0,0,0,0,0,0,0,0,0,0,0
0000000146,0000037760,-00012,019207,-01553,012506,005875,-21929,0,0,0,0,0,0,0,0,0,0,0,0,0,0,0
0000000147,0000038020,-00191,019912,-01437,010851,007351,-22205,0,0,0,0,0,0,0,0,0,0,0,0,0,0,0
0000000148,0000038281,-00386,020527,-01300,009071,008755,-22256,0,0,0,0,0,0,0,0,0,0,0,0,0,0,0
0000000149,0000038541,-00557,021200,-01184,007210,010056,-22022,0,0,0,0,0,0,0,0,0,0,0,0,0,0,0
0000000150,0000038802,-00683,021347,-01059,005306,011233,-21559,0,0,0,0,0,0,0,0,0,0,0,0,0,0,0
0000000151,0000039062,-00826,021255,-00924,003383,012279,-20879,0,0,0,0,0,0,0,0,0,0,0,0,0,0,0
0000000152,0000039322,-00986,021102,-00760,001432,013204,-20004,0,0,0,0,0,0,0,0,0,0,0,0,0,0,0
0000000153,0000039583,-01158,021032,-00578,-00518,014003,-18970,0,0,0,0,0,0,0,0,0,0,0,0,0,0,0
0000000154,0000039843,-01308,020554,-00406,-02480,014697,-17769,0,0,0,0,0,0,0,0,0,0,0,0,0,0,0
0000000155,0000040104,-01390,019724,-00229,-04456,015266,-16387,0,0,0,0,0,0,0,0,0,0,0,0,0,0,0
0000000156,0000040364,-01460,018613,-00064,-06400,015700,-14831,0,0,0,0,0,0,0,0,0,0,0,0,0,0,0
0000000157,0000040625,-01555,017451,000119,-08289,015970,-13105,0,0,0,0,0,0,0,0,0,0,0,0,0,0,0
0000000158,0000040885,-01661,016377,000316,-10082,016094,-11245,0,0,0,0,0,0,0,0,0,0,0,0,0,0,0
0000000159,0000041145,-01708,014859,000472,-11767,016033,-09286,0,0,0,0,0,0,0,0,0,0,0,0,0,0,0
0000000160,0000041406,-01712,013070,000621,-13296,015791,-07284,0,0,0,0,0,0,0,0,0,0,0,0,0,0,0
0000000161,0000041666,-01717,011257,000771,-14689,015406,-05270,0,0,0,0,0,0,0,0,0,0,0,0,0,0,0
0000000162,0000041927,-01757,009564,000943,-15915,014864,-03207,0,0,0,0,0,0,0,0,0,0,0,0,0,0,0
0000000163,0000042187,-01772,007884,001097,-16986,014184,-01118,0,0,0,0,0,0,0,0,0,0,0,0,0,0,0
0000000164,0000042447,-01740,005838,001237,-17913,013384,001004,0,0,0,0,0,0,0,0,0,0,0,0,0,0,0
0000000165,0000042708,-01683,003551,001349,-18726,012488,003166,0,0,0,0,0,0,0,0,0,0,0,0,0,0,0
0000000166,0000042968,-01623,001381,001466,-19412,011478,005349,0,0,0,0,0,0,0,0,0,0,0,0,0,0,0
0000000167,0000043229,-01561,-00587,001557,-19937,010356,007505,0,0,0,0,0,0,0,0,0,0,0,0,0,0,0
0000000168,0000043489,-01470,-02540,001627,-20291,009119,009557,0,0,0,0,0,0,0,0,0,0,0,0,0,0,0
0000000169,0000043750,-01334,-04613,001680,-20408,007776,011500,0,0,0,0,0,0,0,0,0,0,0,0,0,0,0
0000000170,0000044010,-01212,-06778,001726,-20257,006325,013297,0,0,0,0,0,0,0,0,0,0,0,0,0,0,0
0000000171,0000044270,-01080,-08806,001761,-19860,004829,014925,0,0,0,0,0,0,0,0,0,0,0,0,0,0,0
0000000172,0000044531,-00960,-10478,001791,-19260,003302,016402,0,0,0,0,0,0,0,0,0,0,0,0,0,0,0
0000000173,0000044791,-00830,-12257,001792,-18477,001760,017725,0,0,0,0,0,0,0,0,0,0,0,0,0,0,0
0000000174,0000045052,-00647,-14023,001773,-17569,000235,018877,0,0,0,0,0,0,0,0,0,0,0,0,0,0,0
0000000175,0000045312,-00465,-15717,001730,-16539,-01287,019902,0,0,0,0,0,0,0,0,0,0,0,0,0,0,0
0000000176,0000045572,-00276,-17096,001674,-15379,-02812,020775,0,0,0,0,0,0,0,0,0,0,0,0,0,0,0
0000000177,0000045833,-00142,-18116,001611,-14058,-04351,021480,0,0,0,0,0,0,0,0,0,0,0,0,0,0,0
0000000178,0000046093,000011,-18915,001532,-12562,-05854,021985,0,0,0,0,0,0,0,0,0,0,0,0,0,0,0
0000000179,0000046354,000187,-19796,001423,-10919,-07326,022255,0,0,0,0,0,0,0,0,0,0,0,0,0,0,0
0000000180,0000046614,000376,-20610,001309,-09137,-08719,022270,0,0,0,0,0,0,0,0,0,0,0,0,0,0,0
0000000181,0000046875,000557,-21140,001181,-07259,-10009,022021,0,0,0,0,0,0,0,0,0,0,0,0,0,0,0
0000000182,0000047135,000668,-21259,001059,-05336,-11193,021520,0,0,0,0,0,0,0,0,0,0,0,0,0,0,0
0000000183,0000047395,000819,-21315,000938,-03392,-12242,020824,0,0,0,0,0,0,0,0,0,0,0,0,0,0,0
0000000184,0000047656,000986,-21276,000762,-01443,-13174,019950,0,0,0,0,0,0,0,0,0,0,0,0,0,0,0
0000000185,0000047916,001154,-21129,000576,000501,-13984,018937,0,0,0,0,0,0,0,0,0,0,0,0,0,0,0
0000000186,0000048177,001290,-20584,000391,002453,-14682,017777,0,0,0,0,0,0,0,0,0,0,0,0,0,0,0
0000000187,0000048437,001384,-19787,000232,004409,-15253,016433,0,0,0,0,0,0,0,0,0,0,0,0,0,0,0
0000000188,0000048697,001461,-18761,000073,006357,-15690,014887,0,0,0,0,0,0,0,0,0,0,0,0,0,0,0
0000000189,0000048958,001544,-17392,-00111,008245,-15961,013167,0,0,0,0,0,0,0,0,0,0,0,0,0,0,0
0000000190,0000049218,001629,-16072,-00304,010042,-16083,011305,0,0,0,0,0,0,0,0,0,0,0,0,0,0,0
0000000191,0000049479,001690,-14634,-00480,011724,-16029,009340,0,0,0,0,0,0,0,0,0,0,0,0,0,0,0
0000000192,0000049739,001710,-12962,-00638,013263,-15803,007328,0,0,0,0,0,0,0,0,0,0,0,0,0,0,0
0000000193,0000050000,001719,-11303,-00781,014649,-15428,005303,0,0,0,0,0,0,0,0,0,0,0,0,0,0,0
0000000194,0000050260,001749,-09655,-00935,015876,-14882,003241,0,0,0,0,0,0,0,0,0,0,0,0,0,0,0
0000000195,0000050520,001766,-07943,-01098,016957,-14204,001160,0,0,0,0,0,0,0,0,0,0,0,0,0,0,0
0000000196,0000050781,001751,-05977,-01233,017908,-13404,-00977,0,0,0,0,0,0,0,0,0,0,0,0,0,0,0
0000000197,0000051041,001698,-03723,-01355,018734,-12501,-03150,0,0,0,0,0,0,0,0,0,0,0,0,0,0,0
0000000198,0000051302,001630,-01581,-01454,019431,-11489,-05330,0,0,0,0,0,0,0,0,0,0,0,0,0,0,0
